! 12/11/2020 2:06:16 PM, file used: 20191218_TX1550_0dBm_deembed_OFF.chx
! Z:\PRODUCTIONTESTRESULTS\RXANDRXM\VNA TEMP\VNA_TEMP_1_1824835648.S2P
! CHANNEL.1
! TR.MEASUREMENT
! CORRECTED.DATA
# GHZ S DB R 50.0
! FREQ.GHZ         S11DB            S11A          S21DB            S21A          S12DB            S12A          S22DB            S22A          
!; PortSelection: Port_12
   0.035000000    17.4367300  -10.9010800     1.8176100  173.4115000  -110.6978000 -128.9105000   -16.7387000   -0.1845554 
   0.070000000    17.3372500  158.3875000     1.9569620  165.5537000  -102.8889000  122.8882000   -16.9395900   -3.3649590 
   0.105000000    17.4644400  -31.8939200     2.0920280  157.7909000  -104.7577000  152.7864000   -16.2526500   -7.4880170 
   0.140000000    18.0323600  135.2682000     2.2045280  149.9672000  -103.1385000 -171.1188000   -16.6599700  -20.1623100 
   0.175000000    18.4865800  -57.7628500     2.3302240  142.1579000  -103.0141000 -155.1322000   -17.0247600  -25.2518900 
   0.210000000    19.1967600  112.2784000     2.4210560  134.2967000  -107.4326000   43.4031900   -16.9237500  -30.6641000 
   0.245000000    19.3464300  -78.6977400     2.4976650  126.3971000  -107.1071000 -171.0297000   -16.6153900  -34.4501800 
   0.280000000    19.3433400   90.2835400     2.5722590  118.3214000  -102.3755000  138.4795000   -16.5379900  -36.8117100 
   0.315000000    19.7871300 -102.8369000     2.6103760  110.2480000  -107.1285000  -57.1530600   -16.7074100  -40.7789700 
   0.350000000    19.9293200   68.5400600     2.6521150  102.2752000  -109.5927000 -124.6965000   -16.6949600  -46.8939700 
   0.385000000    19.9561700 -121.5932000     2.6958590   94.3937200   -98.7769400   64.2044700   -16.2913700  -51.6565000 
   0.420000000    19.3836200   45.1533200     2.7128270   86.5234800  -106.6090000    7.7893200   -16.0263400  -53.4058100 
   0.455000000    19.3506700 -151.0356000     2.7207690   78.5364400  -109.7133000  -75.6437100   -16.2879800  -55.3265500 
   0.490000000    20.1681000   13.9713800     2.7126580   70.6093800  -101.0775000  156.2434000   -16.6864400  -60.6312900 
   0.525000000    20.9184400 -178.7699000     2.7570710   62.8342800  -105.6329000  153.3867000   -16.7300200  -67.0094800 
   0.560000000    21.2636400   -9.9679650     2.7867160   54.8871600   -91.7407700  118.0018000   -16.6094600  -71.2607600 
   0.595000000    21.3546300  159.2104000     2.8234230   46.9731200   -90.0257800  117.1069000   -16.7100600  -74.7216600 
   0.630000000    21.2423700  -32.2014400     2.7974050   38.7446300  -100.9216000  -11.8258100   -16.9806500  -79.1609000 
   0.665000000    21.4321300  133.3535000     2.7793980   30.8925800   -92.5460100   11.3726500   -17.1827400  -85.3159200 
   0.700000000    21.7825700  -58.3711200     2.7738500   23.0052800  -107.2359000  -54.7606000   -16.9606700  -91.7456000 
   0.735000000    21.6792900  111.7344000     2.7588870   15.0146100  -102.2595000   25.7460200   -16.6157500  -94.6471200 
   0.770000000    21.1061800  -83.7866800     2.7567410    7.0291360   -99.7912600 -127.0345000   -16.8324900  -96.3944800 
   0.805000000    21.2735300   76.6087700     2.7867010   -1.0339900  -117.0470000 -127.1675000   -17.2870500 -102.5615000 
   0.840000000    22.3331700 -117.7657000     2.8206840   -9.0914080  -107.6329000 -176.7347000   -17.0636300 -110.9067000 
   0.875000000    22.8424800   52.1498500     2.8315810  -17.0518500  -108.7293000   73.5273800   -16.4401000 -114.6914000 
   0.910000000    22.6483700 -139.3607000     2.8423540  -24.9631800  -101.4909000 -123.4581000   -16.3639900 -115.0004000 
   0.945000000    22.5565400   25.4724300     2.8616760  -32.8906600  -102.3283000 -137.8661000   -16.9619600 -117.6051000 
   0.980000000    23.0141100 -169.9204000     2.9001590  -40.8635600  -123.7725000 -139.8180000   -17.3334800 -125.6704000 
   1.015000000    23.4285200   -1.7059110     2.9234160  -48.8981800  -105.8018000 -106.9993000   -16.8246500 -132.8181000 
   1.050000000    23.2200200  167.6549000     2.9220510  -56.8907800  -113.0119000  170.1925000   -16.2748500 -134.0093000 
   1.085000000    22.5565200  -27.0669800     2.9353670  -64.8865200  -103.5291000  159.5462000   -16.5565200 -133.1499000 
   1.120000000    22.5213400  133.2575000     2.9169090  -72.9981500  -107.4559000  -76.6326100   -17.5368300 -136.8755000 
   1.155000000    23.4367000  -63.7532100     2.8835560  -81.0318100  -104.4708000   76.4218800   -18.0156300 -147.0180000 
   1.190000000    24.1320700  106.2331000     2.8705970  -88.9524600   -98.9933300   86.2697100   -17.4255800 -154.8080000 
   1.225000000    23.9764600  -81.3343000     2.8638590  -96.7213100  -111.9965000 -134.8436000   -16.9464100 -156.2266000 
   1.260000000    23.0460400   85.8330800     2.8817860 -104.5655000  -110.3213000  124.7132000   -17.3407200 -157.1855000 
   1.295000000    22.6180600 -112.9390000     2.8995910 -112.5425000  -106.0748000   71.6597400   -18.0875600 -163.4746000 
   1.330000000    23.2645100   50.3448600     2.9099550 -120.6533000   -99.8670200   -8.8955190   -17.9789600 -173.1346000 
   1.365000000    23.6343800 -141.1118000     2.9200060 -128.7324000  -108.7090000  125.8670000   -17.3011800 -177.4324000 
   1.400000000    22.9831900   26.8223100     2.9212960 -136.7378000  -100.6692000  104.1213000   -17.3322800 -177.5378000 
   1.435000000    22.2433500 -168.4689000     2.9361980 -144.9310000  -109.0614000 -121.5423000   -18.1213600  178.4848000 
   1.470000000    22.6962700   -6.4847460     2.9352660 -153.2473000  -101.4857000  -76.3087700   -18.3698700  167.8447000 
   1.505000000    23.3801900  161.5662000     2.9154640 -161.5715000  -105.4483000 -130.1233000   -17.5629600  161.0753000 
   1.540000000    23.1984400  -27.1355700     2.9200240 -169.7662000  -102.5929000  -20.7115600   -17.2284800  161.2305000 
   1.575000000    22.2971200  140.3340000     2.9012920 -177.8923000   -97.4832800  157.3140000   -17.9614800  160.0964000 
   1.610000000    21.8776500  -57.6149600     2.8944610  173.8088000  -119.3142000  177.8387000   -18.6875900  150.9803000 
   1.645000000    22.2352300  107.5697000     2.8697370  165.6913000  -102.2392000 -127.2911000   -18.1043300  141.8765000 
   1.680000000    22.1859200  -82.1545600     2.8584020  157.7050000  -135.5461000    3.4623350   -17.4955900  140.8161000 
   1.715000000    21.3721900   86.1998400     2.8472510  149.8445000   -94.6388200 -125.0290000   -17.9710600  140.8392000 
   1.750000000    20.9054500 -111.7606000     2.8517470  141.8893000  -102.3670000  -10.7532200   -18.7777000  133.3941000 
   1.785000000    21.5743600   52.7836800     2.8108760  133.7299000  -101.0808000 -114.6442000   -18.4498800  123.6764000 
   1.820000000    22.0310100 -135.2788000     2.8063560  125.8057000  -102.4817000   79.2296500   -17.9010800  121.6894000 
   1.855000000    21.4340800   37.1813100     2.7776820  117.9589000  -101.5005000  -81.2291600   -18.4999700  121.3586000 
   1.890000000    20.6215100 -156.9438000     2.7578460  110.0074000   -96.7749900   10.3672600   -19.5144000  112.1138000 
   1.925000000    20.7170700    7.2831000     2.7298280  101.9629000  -103.3709000  -80.6779300   -18.9582100   99.7973800 
   1.960000000    21.1198500  178.5071000     2.6931610   94.1171000   -98.5397300   82.6193500   -17.9418200   97.6865000 
   1.995000000    20.5364400   -7.4832870     2.6678580   86.3901400  -101.8503000  -87.4194600   -18.1988300   99.3258000 
   2.030000000    19.2943700  158.0817000     2.6576900   78.4140200  -106.7445000 -159.1277000   -19.2416900   93.3593000 
   2.065000000    19.5843500  -42.8283600     2.6338520   70.3920700  -107.8682000  177.1872000   -19.0327900   81.3070500 
   2.100000000    20.9318000  126.3551000     2.6205470   62.2548400  -105.6413000  100.4408000   -18.0604000   77.4387100 
   2.135000000    21.1103900  -56.7191500     2.6187420   54.3306900  -103.3297000  -27.5955400   -18.1794800   78.6598900 
   2.170000000    19.9484400  116.1481000     2.6126550   46.4039200   -96.6158600   65.6545900   -19.1718400   73.0533500 
   2.205000000    19.1892100  -82.6262900     2.5945450   38.4209000  -104.8051000  172.6442000   -18.9938200   61.1756100 
   2.240000000    20.3740800   81.1218800     2.6011560   30.4296000  -105.2364000 -137.5705000   -18.0602300   58.1242600 
   2.275000000    21.3242800 -104.0603000     2.5821710   22.6322700   -99.6131700   19.8490300   -18.2928800   59.6855700 
   2.310000000    20.7307300   70.9540600     2.5888540   14.6906600   -94.1416000   -6.4000980   -19.3727800   52.7977400 
   2.345000000    19.5462900 -125.7615000     2.5823730    6.7158630  -114.9062000   -0.7950524   -18.8574100   39.7679900 
   2.380000000    20.5292100   32.1073800     2.5938970   -1.4140110  -110.1816000 -112.0841000   -17.6083000   38.1062900 
   2.415000000    22.1209700 -155.9348000     2.5571980   -9.7145210   -98.6826200    2.3621430   -17.9437500   42.2924700 
   2.450000000    22.2791800   21.6237600     2.5659060  -17.7056600   -98.6793100 -126.6097000   -19.8268600   36.0992500 
   2.485000000    20.9742600 -169.3103000     2.5957780  -25.6566100  -123.2831000  -49.1181800   -19.3875100   15.7457100 
   2.520000000    21.9934300   -8.7724330     2.5180080  -38.6935000   -99.7055100  -75.4801100   -18.7217800   16.3183200 
   2.555000000    21.9767900  157.8556000     2.5318770  -47.0483700  -101.9440000  -15.8095600   -18.5525600   10.6665300 
   2.590000000    22.1299100  -35.7925400     2.5345760  -54.9391900  -110.0967000   34.8238700   -18.3395900    6.2114210 
   2.625000000    22.4438300  130.2907000     2.5410140  -63.1271700  -100.9928000  138.3831000   -18.2565700    1.8942790 
   2.660000000    22.8191000  -62.1312800     2.5262360  -70.9263300  -101.2497000  -50.6268900   -18.2858200   -2.5123550 
   2.695000000    23.0568400  105.0986000     2.5099110  -78.8700000  -104.4549000   20.3665900   -18.2269700   -7.9363180 
   2.730000000    23.1921700  -88.1245100     2.4308910  -86.8583800   -97.2565200  171.1458000   -18.0783800  -13.0817800 
   2.765000000    23.4154600   78.7449400     2.3865530  -94.3716500  -101.8509000  -26.3178800   -17.8871400  -17.0350100 
   2.800000000    23.6256600 -114.5844000     2.3791060 -102.5340000  -105.1938000 -177.6412000   -17.8109900  -21.0751200 
   2.835000000    23.8410300   52.2163700     2.4276160 -110.5967000  -109.3657000 -166.8574000   -17.8163900  -25.0453600 
   2.870000000    23.8532700 -141.9455000     2.4198950 -119.0943000   -98.7345000 -152.5508000   -17.8019200  -29.9997900 
   2.905000000    23.7984400   23.8047800     2.4175120 -126.9273000   -99.2095500  -16.8519600   -17.7456200  -34.7792900 
   2.940000000    23.8317500 -170.0408000     2.4329990 -135.2487000  -104.6054000  -10.5676900   -17.6172200  -39.1098100 
   2.975000000    23.9971600   -3.3723390     2.4066570 -143.2140000   -95.5246000   27.0314400   -17.6277000  -42.9797500 
   3.010000000    24.2840400  163.3438000     2.4734360 -151.4539000  -107.8862000  139.2064000   -17.6262500  -47.1849500 
   3.045000000    24.3629400  -30.0198800     2.4401420 -159.5611000  -109.4796000  -66.5797000   -17.6774100  -52.2619800 
   3.080000000    24.4373500  136.4932000     2.4714660 -167.4946000   -94.6055000  146.6151000   -17.5998200  -57.0314400 
   3.115000000    24.4820700  -57.7043600     2.4633370 -175.7002000  -105.5127000  -74.4351300   -17.4913800  -61.5894900 
   3.150000000    24.5618200  108.7279000     2.4616380  176.6362000  -101.1734000  -91.4889800   -17.4695800  -65.3173100 
   3.185000000    24.6897000  -84.9169200     2.4668600  168.3892000   -97.7874100  -52.1004000   -17.4654400  -69.4892300 
   3.220000000    24.6441200   82.1062500     2.4445520  160.5353000  -120.8790000   91.0254800   -17.4935600  -73.9438900 
   3.255000000    24.5643800 -112.1089000     2.4536300  152.5148000  -104.8463000 -102.0588000   -17.4516700  -78.1774300 
   3.290000000    24.5322200   53.1412500     2.4275710  144.5594000  -109.4496000  174.1004000   -17.4343400  -82.2275500 
   3.325000000    24.6398900 -141.0429000     2.4462560  136.5815000  -113.0238000 -169.6796000   -17.4477000  -85.8149000 
   3.360000000    24.7041500   25.5694700     2.4209900  128.2179000  -105.8922000  -55.9055500   -17.4902600  -90.0841000 
   3.395000000    24.6526900 -167.3825000     2.4316550  120.3747000  -109.2257000  133.4344000   -17.5103200  -94.4196300 
   3.430000000    24.4712200   -1.2252400     2.4222080  112.0862000   -97.3673300   31.2490900   -17.4599900  -98.4695100 
   3.465000000    24.3395400  164.4800000     2.3893370  104.1674000  -105.4064000   16.4369800   -17.4998100 -102.1996000 
   3.500000000    24.3177100  -29.5247600     2.3897710   96.0721100  -107.6837000   20.7713200   -17.6140700 -105.7864000 
   3.535000000    24.2662400  136.9606000     2.3487890   88.0535000  -117.1590000  -75.5726800   -17.7394800 -110.2953000 
   3.570000000    24.1506200  -56.1557800     2.3564270   80.0623500  -102.7003000   35.1749000   -17.8058500 -114.9838000 
   3.605000000    23.9178000  110.2964000     2.3680840   71.8973800  -101.1971000  150.2686000   -17.7847800 -119.3720000 
   3.640000000    23.7382000  -83.7996400     2.3445240   63.9118700  -114.9054000  168.2406000   -17.8585200 -123.3467000 
   3.675000000    23.7324200   82.2728000     2.3480570   55.8871100   -99.2913400   50.9839000   -18.0057500 -127.1967000 
   3.710000000    23.7016900 -110.5395000     2.3385310   47.8998400  -105.4967000  -37.5066600   -18.1295100 -132.0656000 
   3.745000000    23.5796900   57.2003400     2.3607580   39.7588300  -101.0737000  -47.7622600   -18.1749200 -136.9747000 
   3.780000000    23.3021600 -135.2291000     2.3566830   31.6240300   -99.5559600 -157.4194000   -18.1308800 -141.3089000 
   3.815000000    23.0496400   31.7118500     2.3703280   23.6838100  -103.5990000   79.6993500   -18.1929200 -144.9400000 
   3.850000000    22.9227400 -161.5760000     2.3596260   15.5700100  -105.7717000  126.7600000   -18.3432900 -148.7838000 
   3.885000000    22.8125600    5.9623250     2.3618490    7.6096120  -105.4450000   20.1307900   -18.4955100 -153.5057000 
   3.920000000    22.6373300  174.1908000     2.3592410   -0.4303516  -100.9501000  151.9272000   -18.5548600 -158.4458000 
   3.955000000    22.3669900  -17.8811900     2.3492000   -8.5244340   -98.5626700  -97.1619600   -18.5404400 -162.6438000 
   3.990000000    22.1790400  149.7397000     2.3288410  -16.4433300  -104.6227000   46.7506200   -18.6252600 -166.4250000 
   4.025000000    22.1130600  -42.4321400     2.3401030  -24.2985300  -104.4067000  -56.0837500   -18.8285800 -170.2392000 
   4.060000000    22.0821500  126.4495000     2.3639270  -32.2189500  -100.3334000   15.9581200   -19.0254000 -174.7198000 
   4.095000000    21.9779100  -64.1041000     2.3342120  -40.2076200  -111.6623000   93.8934600   -19.1768300 -179.4878000 
   4.130000000    21.7930100  105.1354000     2.3468090  -48.2249400   -99.2722000   11.5229800   -19.3098500  176.1668000 
   4.165000000    21.6412100  -86.4394900     2.3483420  -56.2034900  -101.4737000  -29.0730100   -19.5063600  171.9869000 
   4.200000000    21.6116400   81.6154400     2.3509860  -64.2363300  -105.6526000 -103.5006000   -19.7573300  167.2211000 
   4.235000000    21.7077400 -109.8877000     2.3563310  -72.3175500  -107.6648000   19.0551700   -19.9674700  161.8470000 
   4.270000000    21.7863200   59.0489300     2.3599710  -80.6293600  -104.2654000  -69.1060600   -20.0861500  156.5898000 
   4.305000000    21.8294800 -131.9157000     2.3269550  -88.6608000  -102.5913000  -27.4040700   -20.1988000  151.7924000 
   4.340000000    21.8833900   36.5073900     2.3110200  -96.7758100  -100.7278000  158.1309000   -20.3630600  147.1544000 
   4.375000000    22.0444300 -155.7221000     2.3027700 -104.9156000  -101.3713000   81.0987500   -20.6064800  142.1622000 
   4.410000000    22.3060100   12.6880000     2.2855710 -112.7974000  -105.9750000  -21.3840000   -20.8226400  136.6892000 
   4.445000000    22.5447800 -178.6364000     2.2809610 -120.8233000  -102.9791000 -133.6313000   -20.9740900  131.2932000 
   4.480000000    22.5866600  -10.3548300     2.2845790 -128.6795000  -112.6427000   88.0805700   -21.1286000  126.1006000 
   4.515000000    22.5819900  157.2100000     2.2782650 -136.6050000  -113.6518000 -130.9681000   -21.3473400  120.5540000 
   4.550000000    22.6890100  -35.1124500     2.2759380 -144.5631000  -102.1210000   91.8893500   -21.5457700  114.8942000 
   4.585000000    22.9492900  132.9915000     2.2549540 -152.5701000  -105.4917000    3.3939270   -21.7052100  108.7344000 
   4.620000000    23.1925000  -58.9327500     2.2602810 -160.5276000  -110.9038000   -3.8805820   -21.8252200  102.6576000 
   4.655000000    23.4078800  108.9363000     2.2694180 -168.4920000  -101.7444000   97.8177800   -21.9026100   96.6030200 
   4.690000000    23.6266200  -83.7588100     2.2738410 -176.6374000  -101.5795000 -103.0718000   -21.9941600   90.4464200 
   4.725000000    23.8527500   83.4093200     2.2733430  175.2762000  -104.1167000   94.4141900   -22.0610600   84.7508700 
   4.760000000    24.1001600 -109.3223000     2.2611060  167.2684000  -100.0525000  -39.8037900   -22.1899100   79.0805400 
   4.795000000    24.2786400   57.7290900     2.2632310  159.1488000  -107.7751000  -49.8131700   -22.3907500   72.9888500 
   4.830000000    24.4592600 -135.3415000     2.2478510  151.2204000  -105.8488000  -66.9507800   -22.5310200   65.8402300 
   4.865000000    24.6158100   31.3861800     2.2402910  143.0798000  -101.8823000 -152.1116000   -22.4688100   58.4713200 
   4.900000000    24.7466900 -161.7929000     2.2123160  135.1195000  -101.8905000    8.3651300   -22.3178200   52.5087700 
   4.935000000    24.9113400    5.1023210     2.2157030  127.1898000  -105.9370000   30.1130400   -22.2980600   47.1385100 
   4.970000000    25.0095800  171.6965000     2.1996330  119.2001000  -102.2449000   76.2116400   -22.4227500   41.0539800 
   5.005000000    25.1221400  -21.8049700     2.1968370  111.1633000   -98.7516300  130.4648000   -22.4303300   33.4925600 
   5.040000000    25.2427900  144.5406000     2.1791880  103.0372000  -104.6419000   74.8481100   -22.1945000   26.2894300 
   5.075000000    25.4274100  -48.4818500     2.1689510   95.1414200  -101.4968000 -147.1051000   -21.8850500   20.8203800 
   5.110000000    25.6521000  118.6344000     2.1923550   87.0584800  -107.6139000  -23.2567600   -21.7520900   16.1257500 
   5.145000000    25.7402600  -75.2867700     2.2214700   78.8751500   -97.0345200  161.6925000   -21.7818200   10.5169000 
   5.180000000    25.7259500   90.2758000     2.2000680   70.8372700   -99.1932700  134.5509000   -21.6939300    3.6509260 
   5.215000000    25.7439100 -104.3618000     2.1867840   62.8430300  -107.0187000  146.3752000   -21.4059400   -2.4360640 
   5.250000000    25.8156400   61.7204700     2.1811300   54.9819000  -101.5465000  157.3744000   -21.1098100   -6.7163120 
   5.285000000    25.8958100 -131.7617000     2.1802850   46.9688900   -97.2161000  -68.8146900   -21.0600600  -11.0668800 
   5.320000000    25.8615800   34.5539600     2.1663040   38.9181400   -95.9282100 -111.6697000   -21.1460300  -16.6180700 
   5.355000000    25.8003800 -159.3472000     2.1645180   30.9184100   -98.1818200  -16.1262100   -21.0438900  -23.2873500 
   5.390000000    25.7965400    6.7065310     2.1502600   22.8944000  -102.8010000 -140.4963000   -20.7194700  -28.7752400 
   5.425000000    25.7793000  173.1444000     2.1384200   14.9541700   -99.1895100  -39.8865000   -20.4674600  -33.0147400 
   5.460000000    25.7265000  -19.9226500     2.1341140    7.0623600   -99.0349700  -37.4446300   -20.4351900  -37.3174100 
   5.495000000    25.6009100  146.4513000     2.1215930   -0.9644805  -102.2915000   57.2252000   -20.4483100  -43.0960800 
   5.530000000    25.4694600  -47.4401800     2.1177900   -8.8038940   -98.3184000  -14.3848400   -20.2339900  -49.3107100 
